T2F54 000:061.381   SEGGER J-Link V6.80e Log File
T2F54 000:061.484   DLL Compiled: Jul 13 2020 19:00:48
T2F54 000:061.489   Logging started @ 2022-05-17 04:26
T2F54 000:061.495 JLINK_SetWarnOutHandler(...)
T2F54 000:061.501 - 0.008ms
T2F54 000:061.506 JLINK_OpenEx(...)
T2F54 000:067.713   Firmware: J-Link V9 compiled Jun  2 2222 22:22:22
T2F54 000:067.882   Decompressing FW timestamp took 144 us
T2F54 000:080.148   Hardware: V9.40
T2F54 000:080.164   S/N: 81480416
T2F54 000:080.170   OEM: SEGGER
T2F54 000:080.174   Feature(s): GDB, RDI, FlashBP, FlashDL, JFlash, RDDI
T2F54 000:084.284   TELNET listener socket opened on port 19021
T2F54 000:084.483   WEBSRV Starting webserver
T2F54 000:084.539   WEBSRV Failed to put socket into listener state (port 19080)
T2F54 000:084.553   WEBSRV Failed to put socket into listener state (port 19081)
T2F54 000:084.563   WEBSRV Failed to put socket into listener state (port 19082)
T2F54 000:084.647   WEBSRV Webserver running on local port 19083
T2F54 000:084.658 - 23.154ms returns "O.K."
T2F54 000:084.706 JLINK_SetErrorOutHandler(...)
T2F54 000:084.711 - 0.007ms
T2F54 000:084.728 JLINK_ExecCommand("ProjectFile = "F:\MOKO_Prj\BLE_Beacon_APIS_nRF52\BLE_APIS(nRF52)\MProject\JLinkSettings.ini"", ...). 
T2F54 000:095.024   Ref file found at: D:\keil_523\ARM\Segger\JLinkDevices.ref
T2F54 000:095.242   XML referenced by ref file: D:\j-link680\JLinkDevices.xml
T2F54 000:096.027   D:\j-link680\JLinkDevices.xml evaluated successfully.
T2F54 000:142.912   Device "NRF52832_XXAA" selected.
T2F54 000:144.955 - 60.241ms returns 0x00
T2F54 000:147.070 JLINK_ExecCommand("Device = nRF52810_xxAA", ...). 
T2F54 000:149.473   Device "NRF52832_XXAA" selected.
T2F54 000:151.605 - 4.528ms returns 0x00
T2F54 000:151.624 JLINK_ExecCommand("DisableConnectionTimeout", ...). 
T2F54 000:151.634 - 0.005ms returns 0x01
T2F54 000:151.640 JLINK_GetHardwareVersion()
T2F54 000:151.644 - 0.005ms returns 0x16F30
T2F54 000:151.648 JLINK_GetDLLVersion()  returns 68005
T2F54 000:151.656 JLINK_GetFirmwareString(...)
T2F54 000:151.661 - 0.005ms
T2F54 000:157.236 JLINK_GetDLLVersion()  returns 68005
T2F54 000:157.252 JLINK_GetCompileDateTime()
T2F54 000:157.256 - 0.005ms
T2F54 000:160.293 JLINK_GetFirmwareString(...)
T2F54 000:160.308 - 0.017ms
T2F54 000:161.955 JLINK_GetHardwareVersion()
T2F54 000:161.967 - 0.013ms returns 0x16F30
T2F54 000:168.576 JLINK_TIF_Select(JLINKARM_TIF_SWD)
T2F54 000:175.000 - 6.451ms returns 0x00
T2F54 000:175.108 JLINK_SetSpeed(5000)
T2F54 000:179.338 - 4.244ms
T2F54 000:179.430 JLINK_GetId()
T2F54 000:184.946   InitTarget() start
T2F54 000:184.962    J-Link Script File: Executing InitTarget()
T2F54 000:195.376   InitTarget() end
T2F54 000:199.198   Found SW-DP with ID 0x2BA01477
T2F54 000:204.515   Old FW that does not support reading DPIDR via DAP jobs
T2F54 000:208.646   Unknown DP version. Assuming DPv0
T2F54 000:210.451   Scanning AP map to find all available APs
T2F54 000:215.576   AP[2]: Stopped AP scan as end of AP map has been reached
T2F54 000:217.580   AP[0]: AHB-AP (IDR: 0x24770011)
T2F54 000:219.394   AP[1]: JTAG-AP (IDR: 0x02880000)
T2F54 000:222.655   Iterating through AP map to find AHB-AP to use
T2F54 000:227.237   AP[0]: Core found
T2F54 000:229.294   AP[0]: AHB-AP ROM base: 0xE00FF000
T2F54 000:232.574   CPUID register: 0x410FC241. Implementer code: 0x41 (ARM)
T2F54 000:234.424   Found Cortex-M4 r0p1, Little endian.
T2F54 000:336.249   -- Max. mem block: 0x0000AB90
T2F54 000:336.267   CPU_ReadMem(4 bytes @ 0xE000EDF0)
T2F54 000:338.247   CPU_ReadMem(4 bytes @ 0xE0002000)
T2F54 000:341.176   FPUnit: 6 code (BP) slots and 2 literal slots
T2F54 000:341.194   CPU_ReadMem(4 bytes @ 0xE000EDFC)
T2F54 000:342.449   CPU_ReadMem(4 bytes @ 0xE0001000)
T2F54 000:343.439   CPU_WriteMem(4 bytes @ 0xE0001000)
T2F54 000:344.436   CPU_ReadMem(4 bytes @ 0xE000ED88)
T2F54 000:345.451   CPU_WriteMem(4 bytes @ 0xE000ED88)
T2F54 000:346.452   CPU_ReadMem(4 bytes @ 0xE000ED88)
T2F54 000:347.451   CPU_WriteMem(4 bytes @ 0xE000ED88)
T2F54 000:350.386   CoreSight components:
T2F54 000:352.133   ROMTbl[0] @ E00FF000
T2F54 000:352.150   CPU_ReadMem(64 bytes @ 0xE00FF000)
T2F54 000:353.437   CPU_ReadMem(32 bytes @ 0xE000EFE0)
T2F54 000:356.293   ROMTbl[0][0]: E000E000, CID: B105E00D, PID: 000BB000 SCS
T2F54 000:356.311   CPU_ReadMem(32 bytes @ 0xE0001FE0)
T2F54 000:359.332   ROMTbl[0][1]: E0001000, CID: B105E00D, PID: 003BB002 DWT
T2F54 000:359.349   CPU_ReadMem(32 bytes @ 0xE0002FE0)
T2F54 000:362.762   ROMTbl[0][2]: E0002000, CID: B105E00D, PID: 002BB003 FPB
T2F54 000:364.522 - 185.103ms   returns 0x2BA01477
T2F54 000:364.571 JLINK_GetDLLVersion()  returns 68005
T2F54 000:364.579 JLINK_CORE_GetFound()
T2F54 000:364.583 - 0.005ms returns 0xE0000FF
T2F54 000:364.589 JLINK_GetDebugInfo(0x100 = JLINKARM_ROM_TABLE_ADDR_INDEX)
T2F54 000:364.594   Value=0xE00FF000
T2F54 000:364.599 - 0.011ms returns 0x00
T2F54 000:366.467 JLINK_GetDebugInfo(0x100 = JLINKARM_ROM_TABLE_ADDR_INDEX)
T2F54 000:366.479   Value=0xE00FF000
T2F54 000:366.484 - 0.019ms returns 0x00
T2F54 000:366.489 JLINK_GetDebugInfo(0x101 = JLINKARM_DEBUG_INFO_ETM_ADDR_INDEX)
T2F54 000:366.493   Value=0x00000000
T2F54 000:366.497 - 0.009ms returns 0x00
T2F54 000:366.502 JLINK_ReadMem (0xE0041FF0, 0x0010 Bytes, ...)
T2F54 000:366.517   CPU_ReadMem(16 bytes @ 0xE0041FF0)
T2F54 000:368.823   Data:  00 00 00 00 00 00 00 00 00 00 00 00 00 00 00 00
T2F54 000:368.835 - 2.335ms returns 0x00
T2F54 000:368.885 JLINK_GetDebugInfo(0x102 = JLINKARM_DEBUG_INFO_MTB_ADDR_INDEX)
T2F54 000:368.891   Value=0x00000000
T2F54 000:368.896 - 0.012ms returns 0x00
T2F54 000:368.900 JLINK_GetDebugInfo(0x103 = JLINKARM_DEBUG_INFO_TPIU_ADDR_INDEX)
T2F54 000:368.904   Value=0x00000000
T2F54 000:368.909 - 0.010ms returns 0x00
T2F54 000:368.913 JLINK_ReadMem (0xE0040FF0, 0x0010 Bytes, ...)
T2F54 000:368.923   CPU_ReadMem(16 bytes @ 0xE0040FF0)
T2F54 000:370.860   Data:  00 00 00 00 00 00 00 00 00 00 00 00 00 00 00 00
T2F54 000:370.870 - 1.959ms returns 0x00
T2F54 000:370.935 JLINK_GetDebugInfo(0x104 = JLINKARM_DEBUG_INFO_ITM_ADDR_INDEX)
T2F54 000:370.941   Value=0xE0000000
T2F54 000:370.946 - 0.012ms returns 0x00
T2F54 000:370.950 JLINK_GetDebugInfo(0x105 = JLINKARM_DEBUG_INFO_DWT_ADDR_INDEX)
T2F54 000:370.954   Value=0xE0001000
T2F54 000:370.959 - 0.022ms returns 0x00
T2F54 000:370.976 JLINK_GetDebugInfo(0x106 = JLINKARM_DEBUG_INFO_FPB_ADDR_INDEX)
T2F54 000:370.981   Value=0xE0002000
T2F54 000:371.000 - 0.025ms returns 0x00
T2F54 000:371.004 JLINK_GetDebugInfo(0x107 = JLINKARM_DEBUG_INFO_NVIC_ADDR_INDEX)
T2F54 000:371.008   Value=0xE000E000
T2F54 000:371.012 - 0.009ms returns 0x00
T2F54 000:371.017 JLINK_GetDebugInfo(0x10C = JLINKARM_DEBUG_INFO_DBG_ADDR_INDEX)
T2F54 000:371.020   Value=0xE000EDF0
T2F54 000:371.025 - 0.009ms returns 0x00
T2F54 000:371.029 JLINK_ReadMemU32(0xE000EF40, 0x0001 Items, ...)
T2F54 000:371.038   CPU_ReadMem(4 bytes @ 0xE000EF40)
T2F54 000:372.855   Data:  00 00 00 00
T2F54 000:372.865 - 1.837ms returns 1
T2F54 000:372.929 JLINK_ReadMemU32(0xE000ED00, 0x0001 Items, ...)
T2F54 000:372.939   CPU_ReadMem(4 bytes @ 0xE000ED00)
T2F54 000:374.857   Data:  41 C2 0F 41
T2F54 000:374.866   Debug reg: CPUID
T2F54 000:374.871 - 1.943ms returns 1
T2F54 000:374.937 JLINK_SetResetType(JLINKARM_CM3_RESET_TYPE_NORMAL)
T2F54 000:374.942 - 0.007ms returns JLINKARM_CM3_RESET_TYPE_NORMAL
T2F54 000:374.947 JLINK_Reset()
T2F54 000:377.925   CPU is running
T2F54 000:377.955   CPU_WriteMem(4 bytes @ 0xE000EDF0)
T2F54 000:378.820   CPU is running
T2F54 000:378.831   CPU_WriteMem(4 bytes @ 0xE000EDFC)
T2F54 000:381.929   Reset: Halt core after reset via DEMCR.VC_CORERESET.
T2F54 000:386.033   Reset: Reset device via AIRCR.SYSRESETREQ.
T2F54 000:386.053   CPU is running
T2F54 000:386.061   CPU_WriteMem(4 bytes @ 0xE000ED0C)
T2F54 000:440.340   CPU_ReadMem(4 bytes @ 0xE000EDF0)
T2F54 000:441.330   CPU_ReadMem(4 bytes @ 0xE000EDF0)
T2F54 000:442.307   CPU is running
T2F54 000:442.319   CPU_WriteMem(4 bytes @ 0xE000EDF0)
T2F54 000:443.318   CPU is running
T2F54 000:443.330   CPU_WriteMem(4 bytes @ 0xE000EDFC)
T2F54 000:449.017   CPU_ReadMem(4 bytes @ 0xE000EDF0)
T2F54 000:453.434   CPU_WriteMem(4 bytes @ 0xE0002000)
T2F54 000:454.316   CPU_ReadMem(4 bytes @ 0xE000EDFC)
T2F54 000:455.316   CPU_ReadMem(4 bytes @ 0xE0001000)
T2F54 000:456.449 - 81.508ms
T2F54 000:456.525 JLINK_Halt()
T2F54 000:456.532 - 0.008ms returns 0x00
T2F54 000:456.537 JLINK_IsHalted()
T2F54 000:456.555 - 0.019ms returns TRUE
T2F54 000:456.560 JLINK_ReadMemU32(0xE000EDF0, 0x0001 Items, ...)
T2F54 000:456.570   CPU_ReadMem(4 bytes @ 0xE000EDF0)
T2F54 000:474.593   Data:  03 00 03 00
T2F54 000:474.608   Debug reg: DHCSR
T2F54 000:474.612 - 18.054ms returns 1
T2F54 000:474.657 JLINK_WriteU32(0xE000EDF0, 0xA05F0003)
T2F54 000:474.664   Debug reg: DHCSR
T2F54 000:474.680   CPU_WriteMem(4 bytes @ 0xE000EDF0)
T2F54 000:476.557 - 1.906ms returns 0
T2F54 000:476.599 JLINK_WriteU32(0xE000EDFC, 0x01000000)
T2F54 000:476.605   Debug reg: DEMCR
T2F54 000:476.614   CPU_WriteMem(4 bytes @ 0xE000EDFC)
T2F54 000:477.577 - 0.986ms returns 0
T2F54 000:485.373 JLINK_GetHWStatus(...)
T2F54 000:486.632 - 1.268ms returns 0x00
T2F54 000:492.622 JLINK_GetNumBPUnits(Type = 0xFFFFFF00)
T2F54 000:492.638 - 0.017ms returns 0x06
T2F54 000:492.643 JLINK_GetNumBPUnits(Type = 0xF0)
T2F54 000:492.647 - 0.005ms returns 0x2000
T2F54 000:492.651 JLINK_GetNumWPUnits()
T2F54 000:492.655 - 0.005ms returns 0x04
T2F54 000:496.879 JLINK_GetSpeed()
T2F54 000:496.892 - 0.014ms returns 0xFA0
T2F54 000:499.944 JLINK_ReadMemU32(0xE000E004, 0x0001 Items, ...)
T2F54 000:499.967   CPU_ReadMem(4 bytes @ 0xE000E004)
T2F54 000:500.470   Data:  00 00 00 00
T2F54 000:500.479 - 0.537ms returns 1
T2F54 000:500.514 JLINK_ReadMemU32(0xE000E004, 0x0001 Items, ...)
T2F54 000:500.523   CPU_ReadMem(4 bytes @ 0xE000E004)
T2F54 000:501.454   Data:  00 00 00 00
T2F54 000:501.463 - 0.950ms returns 1
T2F54 000:501.496 JLINK_WriteMem(0xE0001000, 0x001C Bytes, ...)
T2F54 000:501.502   Data:  01 00 00 00 00 00 00 00 00 00 00 00 00 00 00 00 ...
T2F54 000:501.822   CPU_WriteMem(28 bytes @ 0xE0001000)
T2F54 000:503.549 - 2.064ms returns 0x1C
T2F54 000:503.612 JLINK_ReadMem (0xE0001000, 0x001C Bytes, ...)
T2F54 000:503.629   CPU_ReadMem(28 bytes @ 0xE0001000)
T2F54 000:504.480   Data:  01 00 00 4F 00 00 00 00 00 00 00 00 00 00 00 00 ...
T2F54 000:504.493 - 0.882ms returns 0x00
T2F54 000:504.549 JLINK_Halt()
T2F54 000:504.555 - 0.007ms returns 0x00
T2F54 000:504.560 JLINK_IsHalted()
T2F54 000:504.564 - 0.006ms returns TRUE
T2F54 000:506.651 JLINK_WriteMem(0x20000000, 0x05B8 Bytes, ...)
T2F54 000:506.661   Data:  00 BE 0A E0 0D 78 2D 06 68 40 08 24 40 00 00 D3 ...
T2F54 000:506.974   CPU_WriteMem(1464 bytes @ 0x20000000)
T2F54 000:527.544 - 20.904ms returns 0x5B8
T2F54 000:527.634 JLINK_WriteReg(R0, 0x00000000)
T2F54 000:527.644 - 0.012ms returns 0x00
T2F54 000:527.649 JLINK_WriteReg(R1, 0x03D09000)
T2F54 000:527.653 - 0.005ms returns 0x00
T2F54 000:527.657 JLINK_WriteReg(R2, 0x00000001)
T2F54 000:527.661 - 0.005ms returns 0x00
T2F54 000:527.665 JLINK_WriteReg(R3, 0x00000000)
T2F54 000:527.668 - 0.005ms returns 0x00
T2F54 000:527.673 JLINK_WriteReg(R4, 0x00000000)
T2F54 000:527.676 - 0.005ms returns 0x00
T2F54 000:527.681 JLINK_WriteReg(R5, 0x00000000)
T2F54 000:527.684 - 0.005ms returns 0x00
T2F54 000:527.688 JLINK_WriteReg(R6, 0x00000000)
T2F54 000:527.692 - 0.005ms returns 0x00
T2F54 000:527.696 JLINK_WriteReg(R7, 0x00000000)
T2F54 000:527.699 - 0.005ms returns 0x00
T2F54 000:527.704 JLINK_WriteReg(R8, 0x00000000)
T2F54 000:527.707 - 0.005ms returns 0x00
T2F54 000:527.711 JLINK_WriteReg(R9, 0x200005B4)
T2F54 000:527.715 - 0.005ms returns 0x00
T2F54 000:527.719 JLINK_WriteReg(R10, 0x00000000)
T2F54 000:527.722 - 0.005ms returns 0x00
T2F54 000:527.727 JLINK_WriteReg(R11, 0x00000000)
T2F54 000:527.730 - 0.005ms returns 0x00
T2F54 000:527.735 JLINK_WriteReg(R12, 0x00000000)
T2F54 000:527.738 - 0.005ms returns 0x00
T2F54 000:527.742 JLINK_WriteReg(R13 (SP), 0x20004000)
T2F54 000:527.747 - 0.006ms returns 0x00
T2F54 000:527.755 JLINK_WriteReg(R14, 0x20000001)
T2F54 000:527.761 - 0.007ms returns 0x00
T2F54 000:527.765 JLINK_WriteReg(R15 (PC), 0x20000020)
T2F54 000:527.769 - 0.005ms returns 0x00
T2F54 000:527.773 JLINK_WriteReg(XPSR, 0x01000000)
T2F54 000:527.777 - 0.005ms returns 0x00
T2F54 000:527.781 JLINK_WriteReg(MSP, 0x20004000)
T2F54 000:527.784 - 0.005ms returns 0x00
T2F54 000:527.788 JLINK_WriteReg(PSP, 0x20004000)
T2F54 000:527.792 - 0.005ms returns 0x00
T2F54 000:527.796 JLINK_WriteReg(CFBP, 0x00000000)
T2F54 000:527.799 - 0.005ms returns 0x00
T2F54 000:527.805   JLINK_SetBPEx(Addr = 0x20000000, Type = 0xFFFFFFF2)
T2F54 000:527.815   CPU_ReadMem(2 bytes @ 0x20000000)
T2F54 000:528.530 - 0.734ms returns 0x00000001
T2F54 000:528.611 JLINK_Go()
T2F54 000:528.626   CPU_WriteMem(2 bytes @ 0x20000000)
T2F54 000:529.593   CPU_ReadMem(4 bytes @ 0xE0001000)
T2F54 000:530.583   CPU_WriteMem(4 bytes @ 0xE0002008)
T2F54 000:530.614   CPU_WriteMem(4 bytes @ 0xE000200C)
T2F54 000:530.619   CPU_WriteMem(4 bytes @ 0xE0002010)
T2F54 000:530.624   CPU_WriteMem(4 bytes @ 0xE0002014)
T2F54 000:530.629   CPU_WriteMem(4 bytes @ 0xE0002018)
T2F54 000:530.634   CPU_WriteMem(4 bytes @ 0xE000201C)
T2F54 000:532.548   CPU_WriteMem(4 bytes @ 0xE0001004)
T2F54 000:536.514 - 7.912ms
T2F54 000:536.563 JLINK_IsHalted()
T2F54 000:539.668   CPU_ReadMem(2 bytes @ 0x20000000)
T2F54 000:540.490 - 3.933ms returns TRUE
T2F54 000:540.533 JLINK_ReadReg(R15 (PC))
T2F54 000:540.556 - 0.025ms returns 0x20000000
T2F54 000:540.562 JLINK_ClrBPEx(BPHandle = 0x00000001)
T2F54 000:540.567 - 0.019ms returns 0x00
T2F54 000:540.584 JLINK_ReadReg(R0)
T2F54 000:540.588 - 0.005ms returns 0x00000000
T2F54 000:540.853 JLINK_WriteReg(R0, 0x00018000)
T2F54 000:540.863 - 0.012ms returns 0x00
T2F54 000:540.867 JLINK_WriteReg(R1, 0x00001000)
T2F54 000:540.871 - 0.005ms returns 0x00
T2F54 000:540.876 JLINK_WriteReg(R2, 0x000000FF)
T2F54 000:540.879 - 0.005ms returns 0x00
T2F54 000:540.883 JLINK_WriteReg(R3, 0x00000000)
T2F54 000:540.887 - 0.005ms returns 0x00
T2F54 000:540.891 JLINK_WriteReg(R4, 0x00000000)
T2F54 000:540.895 - 0.005ms returns 0x00
T2F54 000:540.899 JLINK_WriteReg(R5, 0x00000000)
T2F54 000:540.902 - 0.005ms returns 0x00
T2F54 000:540.907 JLINK_WriteReg(R6, 0x00000000)
T2F54 000:540.910 - 0.005ms returns 0x00
T2F54 000:540.914 JLINK_WriteReg(R7, 0x00000000)
T2F54 000:540.918 - 0.005ms returns 0x00
T2F54 000:540.922 JLINK_WriteReg(R8, 0x00000000)
T2F54 000:540.926 - 0.005ms returns 0x00
T2F54 000:540.930 JLINK_WriteReg(R9, 0x200005B4)
T2F54 000:540.934 - 0.005ms returns 0x00
T2F54 000:540.938 JLINK_WriteReg(R10, 0x00000000)
T2F54 000:540.941 - 0.005ms returns 0x00
T2F54 000:540.946 JLINK_WriteReg(R11, 0x00000000)
T2F54 000:540.949 - 0.005ms returns 0x00
T2F54 000:540.953 JLINK_WriteReg(R12, 0x00000000)
T2F54 000:540.957 - 0.005ms returns 0x00
T2F54 000:540.962 JLINK_WriteReg(R13 (SP), 0x20004000)
T2F54 000:540.967 - 0.007ms returns 0x00
T2F54 000:540.985 JLINK_WriteReg(R14, 0x20000001)
T2F54 000:540.989 - 0.005ms returns 0x00
T2F54 000:540.993 JLINK_WriteReg(R15 (PC), 0x20000288)
T2F54 000:540.997 - 0.005ms returns 0x00
T2F54 000:541.001 JLINK_WriteReg(XPSR, 0x01000000)
T2F54 000:541.005 - 0.005ms returns 0x00
T2F54 000:541.009 JLINK_WriteReg(MSP, 0x20004000)
T2F54 000:541.013 - 0.018ms returns 0x00
T2F54 000:541.030 JLINK_WriteReg(PSP, 0x20004000)
T2F54 000:541.034 - 0.005ms returns 0x00
T2F54 000:541.038 JLINK_WriteReg(CFBP, 0x00000000)
T2F54 000:541.042 - 0.005ms returns 0x00
T2F54 000:541.047   JLINK_SetBPEx(Addr = 0x20000000, Type = 0xFFFFFFF2)
T2F54 000:541.052 - 0.008ms returns 0x00000002
T2F54 000:541.057 JLINK_Go()
T2F54 000:541.068   CPU_ReadMem(4 bytes @ 0xE0001000)
T2F54 000:545.546 - 4.498ms
T2F54 000:545.593 JLINK_IsHalted()
T2F54 000:549.701   CPU_ReadMem(2 bytes @ 0x20000000)
T2F54 000:550.514 - 4.930ms returns TRUE
T2F54 000:550.568 JLINK_ReadReg(R15 (PC))
T2F54 000:550.578 - 0.012ms returns 0x20000000
T2F54 000:550.583 JLINK_ClrBPEx(BPHandle = 0x00000002)
T2F54 000:550.588 - 0.037ms returns 0x00
T2F54 000:550.628 JLINK_ReadReg(R0)
T2F54 000:550.632 - 0.006ms returns 0x00000001
T2F54 000:550.640 JLINK_WriteReg(R0, 0x00018000)
T2F54 000:550.644 - 0.006ms returns 0x00
T2F54 000:550.648 JLINK_WriteReg(R1, 0x00001000)
T2F54 000:550.652 - 0.005ms returns 0x00
T2F54 000:550.657 JLINK_WriteReg(R2, 0x000000FF)
T2F54 000:550.660 - 0.005ms returns 0x00
T2F54 000:550.665 JLINK_WriteReg(R3, 0x00000000)
T2F54 000:550.668 - 0.005ms returns 0x00
T2F54 000:550.673 JLINK_WriteReg(R4, 0x00000000)
T2F54 000:550.676 - 0.005ms returns 0x00
T2F54 000:550.681 JLINK_WriteReg(R5, 0x00000000)
T2F54 000:550.685 - 0.005ms returns 0x00
T2F54 000:550.689 JLINK_WriteReg(R6, 0x00000000)
T2F54 000:550.693 - 0.005ms returns 0x00
T2F54 000:550.697 JLINK_WriteReg(R7, 0x00000000)
T2F54 000:550.701 - 0.005ms returns 0x00
T2F54 000:550.705 JLINK_WriteReg(R8, 0x00000000)
T2F54 000:550.709 - 0.005ms returns 0x00
T2F54 000:550.713 JLINK_WriteReg(R9, 0x200005B4)
T2F54 000:550.716 - 0.005ms returns 0x00
T2F54 000:550.721 JLINK_WriteReg(R10, 0x00000000)
T2F54 000:550.725 - 0.005ms returns 0x00
T2F54 000:550.729 JLINK_WriteReg(R11, 0x00000000)
T2F54 000:550.733 - 0.005ms returns 0x00
T2F54 000:550.737 JLINK_WriteReg(R12, 0x00000000)
T2F54 000:550.741 - 0.005ms returns 0x00
T2F54 000:550.745 JLINK_WriteReg(R13 (SP), 0x20004000)
T2F54 000:550.749 - 0.006ms returns 0x00
T2F54 000:550.754 JLINK_WriteReg(R14, 0x20000001)
T2F54 000:550.757 - 0.005ms returns 0x00
T2F54 000:550.762 JLINK_WriteReg(R15 (PC), 0x200000D4)
T2F54 000:550.766 - 0.005ms returns 0x00
T2F54 000:550.770 JLINK_WriteReg(XPSR, 0x01000000)
T2F54 000:550.774 - 0.005ms returns 0x00
T2F54 000:550.778 JLINK_WriteReg(MSP, 0x20004000)
T2F54 000:550.782 - 0.005ms returns 0x00
T2F54 000:550.786 JLINK_WriteReg(PSP, 0x20004000)
T2F54 000:550.790 - 0.005ms returns 0x00
T2F54 000:550.794 JLINK_WriteReg(CFBP, 0x00000000)
T2F54 000:550.797 - 0.005ms returns 0x00
T2F54 000:550.802   JLINK_SetBPEx(Addr = 0x20000000, Type = 0xFFFFFFF2)
T2F54 000:550.809 - 0.008ms returns 0x00000003
T2F54 000:550.813 JLINK_Go()
T2F54 000:550.824   CPU_ReadMem(4 bytes @ 0xE0001000)
T2F54 000:573.089 - 22.287ms
T2F54 000:573.144 JLINK_IsHalted()
T2F54 000:574.156 - 1.018ms returns FALSE
T2F54 000:606.969 JLINK_IsHalted()
T2F54 000:615.162 - 8.207ms returns FALSE
T2F54 000:617.968 JLINK_IsHalted()
T2F54 000:619.238 - 1.279ms returns FALSE
T2F54 000:620.001 JLINK_IsHalted()
T2F54 000:621.263 - 1.268ms returns FALSE
T2F54 000:621.965 JLINK_IsHalted()
T2F54 000:623.372 - 1.416ms returns FALSE
T2F54 000:624.003 JLINK_IsHalted()
T2F54 000:625.436 - 1.439ms returns FALSE
T2F54 000:625.965 JLINK_IsHalted()
T2F54 000:627.435 - 1.478ms returns FALSE
T2F54 000:633.003 JLINK_IsHalted()
T2F54 000:634.525 - 1.530ms returns FALSE
T2F54 000:634.997 JLINK_IsHalted()
T2F54 000:636.540 - 1.550ms returns FALSE
T2F54 000:636.999 JLINK_IsHalted()
T2F54 000:638.518 - 1.528ms returns FALSE
T2F54 000:638.994 JLINK_IsHalted()
T2F54 000:639.537 - 0.548ms returns FALSE
T2F54 000:639.965 JLINK_IsHalted()
T2F54 000:641.540 - 1.583ms returns FALSE
T2F54 000:646.966 JLINK_IsHalted()
T2F54 000:664.269   CPU_ReadMem(2 bytes @ 0x20000000)
T2F54 000:665.089 - 18.131ms returns TRUE
T2F54 000:665.148 JLINK_ReadReg(R15 (PC))
T2F54 000:665.173 - 0.026ms returns 0x20000000
T2F54 000:665.179 JLINK_ClrBPEx(BPHandle = 0x00000003)
T2F54 000:665.196 - 0.019ms returns 0x00
T2F54 000:665.201 JLINK_ReadReg(R0)
T2F54 000:665.220 - 0.020ms returns 0x00000000
T2F54 000:665.632 JLINK_WriteReg(R0, 0x00019000)
T2F54 000:665.643 - 0.013ms returns 0x00
T2F54 000:665.648 JLINK_WriteReg(R1, 0x00001000)
T2F54 000:665.652 - 0.005ms returns 0x00
T2F54 000:665.656 JLINK_WriteReg(R2, 0x000000FF)
T2F54 000:665.660 - 0.005ms returns 0x00
T2F54 000:665.664 JLINK_WriteReg(R3, 0x00000000)
T2F54 000:665.668 - 0.005ms returns 0x00
T2F54 000:665.672 JLINK_WriteReg(R4, 0x00000000)
T2F54 000:665.676 - 0.005ms returns 0x00
T2F54 000:665.680 JLINK_WriteReg(R5, 0x00000000)
T2F54 000:665.684 - 0.008ms returns 0x00
T2F54 000:665.693 JLINK_WriteReg(R6, 0x00000000)
T2F54 000:665.697 - 0.005ms returns 0x00
T2F54 000:665.701 JLINK_WriteReg(R7, 0x00000000)
T2F54 000:665.704 - 0.005ms returns 0x00
T2F54 000:665.709 JLINK_WriteReg(R8, 0x00000000)
T2F54 000:665.712 - 0.005ms returns 0x00
T2F54 000:665.716 JLINK_WriteReg(R9, 0x200005B4)
T2F54 000:665.720 - 0.005ms returns 0x00
T2F54 000:665.724 JLINK_WriteReg(R10, 0x00000000)
T2F54 000:665.728 - 0.005ms returns 0x00
T2F54 000:665.732 JLINK_WriteReg(R11, 0x00000000)
T2F54 000:665.736 - 0.005ms returns 0x00
T2F54 000:665.740 JLINK_WriteReg(R12, 0x00000000)
T2F54 000:665.744 - 0.005ms returns 0x00
T2F54 000:665.748 JLINK_WriteReg(R13 (SP), 0x20004000)
T2F54 000:665.752 - 0.006ms returns 0x00
T2F54 000:665.756 JLINK_WriteReg(R14, 0x20000001)
T2F54 000:665.760 - 0.005ms returns 0x00
T2F54 000:665.765 JLINK_WriteReg(R15 (PC), 0x20000288)
T2F54 000:665.768 - 0.005ms returns 0x00
T2F54 000:665.772 JLINK_WriteReg(XPSR, 0x01000000)
T2F54 000:665.776 - 0.005ms returns 0x00
T2F54 000:665.780 JLINK_WriteReg(MSP, 0x20004000)
T2F54 000:665.784 - 0.005ms returns 0x00
T2F54 000:665.788 JLINK_WriteReg(PSP, 0x20004000)
T2F54 000:665.792 - 0.005ms returns 0x00
T2F54 000:665.796 JLINK_WriteReg(CFBP, 0x00000000)
T2F54 000:665.814 - 0.020ms returns 0x00
T2F54 000:665.820   JLINK_SetBPEx(Addr = 0x20000000, Type = 0xFFFFFFF2)
T2F54 000:665.826 - 0.008ms returns 0x00000004
T2F54 000:665.830 JLINK_Go()
T2F54 000:665.843   CPU_ReadMem(4 bytes @ 0xE0001000)
T2F54 000:670.275 - 4.454ms
T2F54 000:670.320 JLINK_IsHalted()
T2F54 000:673.291   CPU_ReadMem(2 bytes @ 0x20000000)
T2F54 000:674.261 - 3.950ms returns TRUE
T2F54 000:674.304 JLINK_ReadReg(R15 (PC))
T2F54 000:674.314 - 0.012ms returns 0x20000000
T2F54 000:674.319 JLINK_ClrBPEx(BPHandle = 0x00000004)
T2F54 000:674.324 - 0.006ms returns 0x00
T2F54 000:674.329 JLINK_ReadReg(R0)
T2F54 000:674.333 - 0.005ms returns 0x00000001
T2F54 000:674.340 JLINK_WriteReg(R0, 0x00019000)
T2F54 000:674.344 - 0.006ms returns 0x00
T2F54 000:674.349 JLINK_WriteReg(R1, 0x00001000)
T2F54 000:674.353 - 0.005ms returns 0x00
T2F54 000:674.357 JLINK_WriteReg(R2, 0x000000FF)
T2F54 000:674.360 - 0.005ms returns 0x00
T2F54 000:674.365 JLINK_WriteReg(R3, 0x00000000)
T2F54 000:674.368 - 0.005ms returns 0x00
T2F54 000:674.373 JLINK_WriteReg(R4, 0x00000000)
T2F54 000:674.376 - 0.005ms returns 0x00
T2F54 000:674.381 JLINK_WriteReg(R5, 0x00000000)
T2F54 000:674.384 - 0.005ms returns 0x00
T2F54 000:674.388 JLINK_WriteReg(R6, 0x00000000)
T2F54 000:674.392 - 0.005ms returns 0x00
T2F54 000:674.396 JLINK_WriteReg(R7, 0x00000000)
T2F54 000:674.400 - 0.005ms returns 0x00
T2F54 000:674.404 JLINK_WriteReg(R8, 0x00000000)
T2F54 000:674.408 - 0.005ms returns 0x00
T2F54 000:674.412 JLINK_WriteReg(R9, 0x200005B4)
T2F54 000:674.416 - 0.005ms returns 0x00
T2F54 000:674.420 JLINK_WriteReg(R10, 0x00000000)
T2F54 000:674.424 - 0.005ms returns 0x00
T2F54 000:674.428 JLINK_WriteReg(R11, 0x00000000)
T2F54 000:674.432 - 0.005ms returns 0x00
T2F54 000:674.436 JLINK_WriteReg(R12, 0x00000000)
T2F54 000:674.440 - 0.005ms returns 0x00
T2F54 000:674.444 JLINK_WriteReg(R13 (SP), 0x20004000)
T2F54 000:674.448 - 0.005ms returns 0x00
T2F54 000:674.453 JLINK_WriteReg(R14, 0x20000001)
T2F54 000:674.456 - 0.005ms returns 0x00
T2F54 000:674.460 JLINK_WriteReg(R15 (PC), 0x200000D4)
T2F54 000:674.464 - 0.005ms returns 0x00
T2F54 000:674.469 JLINK_WriteReg(XPSR, 0x01000000)
T2F54 000:674.472 - 0.005ms returns 0x00
T2F54 000:674.477 JLINK_WriteReg(MSP, 0x20004000)
T2F54 000:674.480 - 0.005ms returns 0x00
T2F54 000:674.485 JLINK_WriteReg(PSP, 0x20004000)
T2F54 000:674.488 - 0.005ms returns 0x00
T2F54 000:674.492 JLINK_WriteReg(CFBP, 0x00000000)
T2F54 000:674.497 - 0.005ms returns 0x00
T2F54 000:674.502   JLINK_SetBPEx(Addr = 0x20000000, Type = 0xFFFFFFF2)
T2F54 000:674.508 - 0.008ms returns 0x00000005
T2F54 000:674.512 JLINK_Go()
T2F54 000:674.524   CPU_ReadMem(4 bytes @ 0xE0001000)
T2F54 000:678.320 - 3.817ms
T2F54 000:678.403 JLINK_IsHalted()
T2F54 000:679.311 - 0.915ms returns FALSE
T2F54 000:682.966 JLINK_IsHalted()
T2F54 000:684.496 - 1.539ms returns FALSE
T2F54 000:685.010 JLINK_IsHalted()
T2F54 000:686.436 - 1.434ms returns FALSE
T2F54 000:686.999 JLINK_IsHalted()
T2F54 000:688.464 - 1.473ms returns FALSE
T2F54 000:701.999 JLINK_IsHalted()
T2F54 000:706.566 - 4.577ms returns FALSE
T2F54 000:708.959 JLINK_IsHalted()
T2F54 000:710.424 - 1.474ms returns FALSE
T2F54 000:710.994 JLINK_IsHalted()
T2F54 000:712.422 - 1.436ms returns FALSE
T2F54 000:712.993 JLINK_IsHalted()
T2F54 000:714.461 - 1.477ms returns FALSE
T2F54 000:714.996 JLINK_IsHalted()
T2F54 000:716.401 - 1.414ms returns FALSE
T2F54 000:716.959 JLINK_IsHalted()
T2F54 000:719.437 - 2.486ms returns FALSE
T2F54 000:719.992 JLINK_IsHalted()
T2F54 000:721.412 - 1.443ms returns FALSE
T2F54 000:721.990 JLINK_IsHalted()
T2F54 000:723.508 - 1.529ms returns FALSE
T2F54 000:728.997 JLINK_IsHalted()
T2F54 000:730.466 - 1.476ms returns FALSE
T2F54 000:730.996 JLINK_IsHalted()
T2F54 000:732.534 - 1.547ms returns FALSE
T2F54 000:732.992 JLINK_IsHalted()
T2F54 000:734.468 - 1.485ms returns FALSE
T2F54 000:734.992 JLINK_IsHalted()
T2F54 000:753.030 - 18.049ms returns FALSE
T2F54 000:756.997 JLINK_IsHalted()
T2F54 000:758.370 - 1.382ms returns FALSE
T2F54 000:758.991 JLINK_IsHalted()
T2F54 000:760.329 - 1.346ms returns FALSE
T2F54 000:760.983 JLINK_IsHalted()
T2F54 000:762.348 - 1.372ms returns FALSE
T2F54 000:762.990 JLINK_IsHalted()
T2F54 000:766.596   CPU_ReadMem(2 bytes @ 0x20000000)
T2F54 000:767.422 - 4.442ms returns TRUE
T2F54 000:767.483 JLINK_ReadReg(R15 (PC))
T2F54 000:767.493 - 0.012ms returns 0x20000000
T2F54 000:767.499 JLINK_ClrBPEx(BPHandle = 0x00000005)
T2F54 000:767.503 - 0.006ms returns 0x00
T2F54 000:767.509 JLINK_ReadReg(R0)
T2F54 000:767.513 - 0.006ms returns 0x00000000
T2F54 000:768.285 JLINK_WriteReg(R0, 0x0001A000)
T2F54 000:768.299 - 0.016ms returns 0x00
T2F54 000:768.305 JLINK_WriteReg(R1, 0x00001000)
T2F54 000:768.309 - 0.006ms returns 0x00
T2F54 000:768.313 JLINK_WriteReg(R2, 0x000000FF)
T2F54 000:768.317 - 0.005ms returns 0x00
T2F54 000:768.321 JLINK_WriteReg(R3, 0x00000000)
T2F54 000:768.325 - 0.005ms returns 0x00
T2F54 000:768.330 JLINK_WriteReg(R4, 0x00000000)
T2F54 000:768.333 - 0.005ms returns 0x00
T2F54 000:768.338 JLINK_WriteReg(R5, 0x00000000)
T2F54 000:768.341 - 0.005ms returns 0x00
T2F54 000:768.346 JLINK_WriteReg(R6, 0x00000000)
T2F54 000:768.349 - 0.005ms returns 0x00
T2F54 000:768.354 JLINK_WriteReg(R7, 0x00000000)
T2F54 000:768.357 - 0.005ms returns 0x00
T2F54 000:768.362 JLINK_WriteReg(R8, 0x00000000)
T2F54 000:768.366 - 0.005ms returns 0x00
T2F54 000:768.370 JLINK_WriteReg(R9, 0x200005B4)
T2F54 000:768.374 - 0.005ms returns 0x00
T2F54 000:768.378 JLINK_WriteReg(R10, 0x00000000)
T2F54 000:768.382 - 0.005ms returns 0x00
T2F54 000:768.386 JLINK_WriteReg(R11, 0x00000000)
T2F54 000:768.390 - 0.005ms returns 0x00
T2F54 000:768.395 JLINK_WriteReg(R12, 0x00000000)
T2F54 000:768.398 - 0.005ms returns 0x00
T2F54 000:768.402 JLINK_WriteReg(R13 (SP), 0x20004000)
T2F54 000:768.407 - 0.006ms returns 0x00
T2F54 000:768.411 JLINK_WriteReg(R14, 0x20000001)
T2F54 000:768.415 - 0.005ms returns 0x00
T2F54 000:768.419 JLINK_WriteReg(R15 (PC), 0x20000288)
T2F54 000:768.423 - 0.005ms returns 0x00
T2F54 000:768.427 JLINK_WriteReg(XPSR, 0x01000000)
T2F54 000:768.431 - 0.005ms returns 0x00
T2F54 000:768.435 JLINK_WriteReg(MSP, 0x20004000)
T2F54 000:768.439 - 0.005ms returns 0x00
T2F54 000:768.443 JLINK_WriteReg(PSP, 0x20004000)
T2F54 000:768.447 - 0.005ms returns 0x00
T2F54 000:768.451 JLINK_WriteReg(CFBP, 0x00000000)
T2F54 000:768.455 - 0.005ms returns 0x00
T2F54 000:768.460   JLINK_SetBPEx(Addr = 0x20000000, Type = 0xFFFFFFF2)
T2F54 000:768.466 - 0.008ms returns 0x00000006
T2F54 000:768.471 JLINK_Go()
T2F54 000:768.483   CPU_ReadMem(4 bytes @ 0xE0001000)
T2F54 000:772.728 - 4.264ms
T2F54 000:772.771 JLINK_IsHalted()
T2F54 000:775.800   CPU_ReadMem(2 bytes @ 0x20000000)
T2F54 000:776.758 - 3.998ms returns TRUE
T2F54 000:776.820 JLINK_ReadReg(R15 (PC))
T2F54 000:776.830 - 0.011ms returns 0x20000000
T2F54 000:776.835 JLINK_ClrBPEx(BPHandle = 0x00000006)
T2F54 000:776.839 - 0.006ms returns 0x00
T2F54 000:776.844 JLINK_ReadReg(R0)
T2F54 000:776.848 - 0.005ms returns 0x00000001
T2F54 000:776.855 JLINK_WriteReg(R0, 0x0001A000)
T2F54 000:776.859 - 0.006ms returns 0x00
T2F54 000:776.864 JLINK_WriteReg(R1, 0x00001000)
T2F54 000:776.868 - 0.005ms returns 0x00
T2F54 000:776.872 JLINK_WriteReg(R2, 0x000000FF)
T2F54 000:776.875 - 0.005ms returns 0x00
T2F54 000:776.880 JLINK_WriteReg(R3, 0x00000000)
T2F54 000:776.884 - 0.005ms returns 0x00
T2F54 000:776.888 JLINK_WriteReg(R4, 0x00000000)
T2F54 000:776.904 - 0.018ms returns 0x00
T2F54 000:776.909 JLINK_WriteReg(R5, 0x00000000)
T2F54 000:776.912 - 0.004ms returns 0x00
T2F54 000:776.916 JLINK_WriteReg(R6, 0x00000000)
T2F54 000:776.919 - 0.005ms returns 0x00
T2F54 000:776.924 JLINK_WriteReg(R7, 0x00000000)
T2F54 000:776.927 - 0.005ms returns 0x00
T2F54 000:776.931 JLINK_WriteReg(R8, 0x00000000)
T2F54 000:776.935 - 0.005ms returns 0x00
T2F54 000:776.939 JLINK_WriteReg(R9, 0x200005B4)
T2F54 000:776.943 - 0.005ms returns 0x00
T2F54 000:776.949 JLINK_WriteReg(R10, 0x00000000)
T2F54 000:776.968 - 0.020ms returns 0x00
T2F54 000:776.972 JLINK_WriteReg(R11, 0x00000000)
T2F54 000:776.976 - 0.005ms returns 0x00
T2F54 000:776.981 JLINK_WriteReg(R12, 0x00000000)
T2F54 000:776.984 - 0.005ms returns 0x00
T2F54 000:776.988 JLINK_WriteReg(R13 (SP), 0x20004000)
T2F54 000:776.992 - 0.005ms returns 0x00
T2F54 000:776.997 JLINK_WriteReg(R14, 0x20000001)
T2F54 000:777.000 - 0.005ms returns 0x00
T2F54 000:777.005 JLINK_WriteReg(R15 (PC), 0x200000D4)
T2F54 000:777.009 - 0.005ms returns 0x00
T2F54 000:777.013 JLINK_WriteReg(XPSR, 0x01000000)
T2F54 000:777.016 - 0.005ms returns 0x00
T2F54 000:777.021 JLINK_WriteReg(MSP, 0x20004000)
T2F54 000:777.024 - 0.005ms returns 0x00
T2F54 000:777.029 JLINK_WriteReg(PSP, 0x20004000)
T2F54 000:777.032 - 0.005ms returns 0x00
T2F54 000:777.037 JLINK_WriteReg(CFBP, 0x00000000)
T2F54 000:777.040 - 0.005ms returns 0x00
T2F54 000:777.045   JLINK_SetBPEx(Addr = 0x20000000, Type = 0xFFFFFFF2)
T2F54 000:777.051 - 0.008ms returns 0x00000007
T2F54 000:777.055 JLINK_Go()
T2F54 000:777.065   CPU_ReadMem(4 bytes @ 0xE0001000)
T2F54 000:781.736 - 4.690ms
T2F54 000:781.822 JLINK_IsHalted()
T2F54 000:782.731 - 0.914ms returns FALSE
T2F54 000:788.955 JLINK_IsHalted()
T2F54 000:800.801 - 11.857ms returns FALSE
T2F54 000:820.969 JLINK_IsHalted()
T2F54 000:822.561 - 1.601ms returns FALSE
T2F54 000:822.972 JLINK_IsHalted()
T2F54 000:823.563 - 0.597ms returns FALSE
T2F54 000:823.947 JLINK_IsHalted()
T2F54 000:824.602 - 0.659ms returns FALSE
T2F54 000:824.947 JLINK_IsHalted()
T2F54 000:825.599 - 0.657ms returns FALSE
T2F54 000:825.948 JLINK_IsHalted()
T2F54 000:826.598 - 0.655ms returns FALSE
T2F54 000:826.987 JLINK_IsHalted()
T2F54 000:827.626 - 0.647ms returns FALSE
T2F54 000:828.987 JLINK_IsHalted()
T2F54 000:846.983 - 18.009ms returns FALSE
T2F54 000:852.951 JLINK_IsHalted()
T2F54 000:854.401 - 1.459ms returns FALSE
T2F54 000:854.969 JLINK_IsHalted()
T2F54 000:857.213 - 2.252ms returns FALSE
T2F54 000:857.984 JLINK_IsHalted()
T2F54 000:859.242 - 1.266ms returns FALSE
T2F54 000:859.982 JLINK_IsHalted()
T2F54 000:861.301 - 1.329ms returns FALSE
T2F54 000:866.986 JLINK_IsHalted()
T2F54 000:870.506   CPU_ReadMem(2 bytes @ 0x20000000)
T2F54 000:871.463 - 4.484ms returns TRUE
T2F54 000:871.507 JLINK_ReadReg(R15 (PC))
T2F54 000:871.516 - 0.010ms returns 0x20000000
T2F54 000:871.520 JLINK_ClrBPEx(BPHandle = 0x00000007)
T2F54 000:871.525 - 0.006ms returns 0x00
T2F54 000:871.530 JLINK_ReadReg(R0)
T2F54 000:871.533 - 0.005ms returns 0x00000000
T2F54 000:871.884 JLINK_WriteReg(R0, 0x0001B000)
T2F54 000:871.909 - 0.026ms returns 0x00
T2F54 000:871.913 JLINK_WriteReg(R1, 0x00001000)
T2F54 000:871.918 - 0.005ms returns 0x00
T2F54 000:871.922 JLINK_WriteReg(R2, 0x000000FF)
T2F54 000:871.925 - 0.005ms returns 0x00
T2F54 000:871.992 JLINK_WriteReg(R3, 0x00000000)
T2F54 000:871.999 - 0.008ms returns 0x00
T2F54 000:872.005 JLINK_WriteReg(R4, 0x00000000)
T2F54 000:872.008 - 0.005ms returns 0x00
T2F54 000:872.013 JLINK_WriteReg(R5, 0x00000000)
T2F54 000:872.017 - 0.005ms returns 0x00
T2F54 000:872.022 JLINK_WriteReg(R6, 0x00000000)
T2F54 000:872.026 - 0.005ms returns 0x00
T2F54 000:872.031 JLINK_WriteReg(R7, 0x00000000)
T2F54 000:872.035 - 0.005ms returns 0x00
T2F54 000:872.039 JLINK_WriteReg(R8, 0x00000000)
T2F54 000:872.044 - 0.005ms returns 0x00
T2F54 000:872.048 JLINK_WriteReg(R9, 0x200005B4)
T2F54 000:872.052 - 0.005ms returns 0x00
T2F54 000:872.057 JLINK_WriteReg(R10, 0x00000000)
T2F54 000:872.074 - 0.018ms returns 0x00
T2F54 000:872.079 JLINK_WriteReg(R11, 0x00000000)
T2F54 000:872.082 - 0.005ms returns 0x00
T2F54 000:872.087 JLINK_WriteReg(R12, 0x00000000)
T2F54 000:872.091 - 0.005ms returns 0x00
T2F54 000:872.095 JLINK_WriteReg(R13 (SP), 0x20004000)
T2F54 000:872.100 - 0.006ms returns 0x00
T2F54 000:872.105 JLINK_WriteReg(R14, 0x20000001)
T2F54 000:872.109 - 0.005ms returns 0x00
T2F54 000:872.113 JLINK_WriteReg(R15 (PC), 0x20000288)
T2F54 000:872.117 - 0.005ms returns 0x00
T2F54 000:872.122 JLINK_WriteReg(XPSR, 0x01000000)
T2F54 000:872.125 - 0.005ms returns 0x00
T2F54 000:872.131 JLINK_WriteReg(MSP, 0x20004000)
T2F54 000:872.134 - 0.005ms returns 0x00
T2F54 000:872.139 JLINK_WriteReg(PSP, 0x20004000)
T2F54 000:872.143 - 0.005ms returns 0x00
T2F54 000:872.148 JLINK_WriteReg(CFBP, 0x00000000)
T2F54 000:872.151 - 0.005ms returns 0x00
T2F54 000:872.157   JLINK_SetBPEx(Addr = 0x20000000, Type = 0xFFFFFFF2)
T2F54 000:872.163 - 0.008ms returns 0x00000008
T2F54 000:872.168 JLINK_Go()
T2F54 000:872.179   CPU_ReadMem(4 bytes @ 0xE0001000)
T2F54 000:876.495 - 4.339ms
T2F54 000:876.551 JLINK_IsHalted()
T2F54 000:879.567   CPU_ReadMem(2 bytes @ 0x20000000)
T2F54 000:880.532 - 3.987ms returns TRUE
T2F54 000:880.606 JLINK_ReadReg(R15 (PC))
T2F54 000:880.622 - 0.028ms returns 0x20000000
T2F54 000:880.629 JLINK_ClrBPEx(BPHandle = 0x00000008)
T2F54 000:880.635 - 0.006ms returns 0x00
T2F54 000:880.640 JLINK_ReadReg(R0)
T2F54 000:880.644 - 0.006ms returns 0x00000001
T2F54 000:880.652 JLINK_WriteReg(R0, 0x0001B000)
T2F54 000:880.656 - 0.006ms returns 0x00
T2F54 000:880.661 JLINK_WriteReg(R1, 0x00001000)
T2F54 000:880.665 - 0.005ms returns 0x00
T2F54 000:880.669 JLINK_WriteReg(R2, 0x000000FF)
T2F54 000:880.673 - 0.005ms returns 0x00
T2F54 000:880.677 JLINK_WriteReg(R3, 0x00000000)
T2F54 000:880.681 - 0.005ms returns 0x00
T2F54 000:880.685 JLINK_WriteReg(R4, 0x00000000)
T2F54 000:880.689 - 0.005ms returns 0x00
T2F54 000:880.693 JLINK_WriteReg(R5, 0x00000000)
T2F54 000:880.697 - 0.005ms returns 0x00
T2F54 000:880.701 JLINK_WriteReg(R6, 0x00000000)
T2F54 000:880.705 - 0.005ms returns 0x00
T2F54 000:880.710 JLINK_WriteReg(R7, 0x00000000)
T2F54 000:880.713 - 0.005ms returns 0x00
T2F54 000:880.718 JLINK_WriteReg(R8, 0x00000000)
T2F54 000:880.722 - 0.005ms returns 0x00
T2F54 000:880.727 JLINK_WriteReg(R9, 0x200005B4)
T2F54 000:880.730 - 0.005ms returns 0x00
T2F54 000:880.735 JLINK_WriteReg(R10, 0x00000000)
T2F54 000:880.739 - 0.005ms returns 0x00
T2F54 000:880.744 JLINK_WriteReg(R11, 0x00000000)
T2F54 000:880.749 - 0.005ms returns 0x00
T2F54 000:880.754 JLINK_WriteReg(R12, 0x00000000)
T2F54 000:880.757 - 0.005ms returns 0x00
T2F54 000:880.762 JLINK_WriteReg(R13 (SP), 0x20004000)
T2F54 000:880.766 - 0.006ms returns 0x00
T2F54 000:880.772 JLINK_WriteReg(R14, 0x20000001)
T2F54 000:880.775 - 0.005ms returns 0x00
T2F54 000:880.781 JLINK_WriteReg(R15 (PC), 0x200000D4)
T2F54 000:880.784 - 0.005ms returns 0x00
T2F54 000:880.789 JLINK_WriteReg(XPSR, 0x01000000)
T2F54 000:880.793 - 0.005ms returns 0x00
T2F54 000:880.798 JLINK_WriteReg(MSP, 0x20004000)
T2F54 000:880.802 - 0.005ms returns 0x00
T2F54 000:880.807 JLINK_WriteReg(PSP, 0x20004000)
T2F54 000:880.811 - 0.005ms returns 0x00
T2F54 000:880.815 JLINK_WriteReg(CFBP, 0x00000000)
T2F54 000:880.819 - 0.005ms returns 0x00
T2F54 000:880.830   JLINK_SetBPEx(Addr = 0x20000000, Type = 0xFFFFFFF2)
T2F54 000:880.840 - 0.011ms returns 0x00000009
T2F54 000:880.845 JLINK_Go()
T2F54 000:880.857   CPU_ReadMem(4 bytes @ 0xE0001000)
T2F54 000:901.468 - 20.634ms
T2F54 000:901.530 JLINK_IsHalted()
T2F54 000:903.525 - 2.001ms returns FALSE
T2F54 000:907.967 JLINK_IsHalted()
T2F54 000:909.492 - 1.538ms returns FALSE
T2F54 000:926.960 JLINK_IsHalted()
T2F54 000:944.961 - 18.012ms returns FALSE
T2F54 000:948.956 JLINK_IsHalted()
T2F54 000:950.331 - 1.383ms returns FALSE
T2F54 000:950.978 JLINK_IsHalted()
T2F54 000:952.305 - 1.335ms returns FALSE
T2F54 000:952.975 JLINK_IsHalted()
T2F54 000:954.336 - 1.370ms returns FALSE
T2F54 000:960.959 JLINK_IsHalted()
T2F54 000:962.274 - 1.324ms returns FALSE
T2F54 000:962.938 JLINK_IsHalted()
T2F54 000:964.321 - 1.393ms returns FALSE
T2F54 000:965.942 JLINK_IsHalted()
T2F54 000:967.206 - 1.273ms returns FALSE
T2F54 000:967.975 JLINK_IsHalted()
T2F54 000:969.410 - 1.455ms returns FALSE
T2F54 000:971.976 JLINK_IsHalted()
T2F54 000:973.491 - 1.525ms returns FALSE
T2F54 000:973.983 JLINK_IsHalted()
T2F54 000:993.774   CPU_ReadMem(2 bytes @ 0x20000000)
T2F54 000:994.556 - 20.581ms returns TRUE
T2F54 000:994.612 JLINK_ReadReg(R15 (PC))
T2F54 000:994.622 - 0.012ms returns 0x20000000
T2F54 000:994.627 JLINK_ClrBPEx(BPHandle = 0x00000009)
T2F54 000:994.632 - 0.006ms returns 0x00
T2F54 000:994.637 JLINK_ReadReg(R0)
T2F54 000:994.641 - 0.006ms returns 0x00000000
T2F54 000:995.053 JLINK_WriteReg(R0, 0x0001C000)
T2F54 000:995.065 - 0.013ms returns 0x00
T2F54 000:995.069 JLINK_WriteReg(R1, 0x00001000)
T2F54 000:995.073 - 0.005ms returns 0x00
T2F54 000:995.078 JLINK_WriteReg(R2, 0x000000FF)
T2F54 000:995.081 - 0.005ms returns 0x00
T2F54 000:995.085 JLINK_WriteReg(R3, 0x00000000)
T2F54 000:995.089 - 0.005ms returns 0x00
T2F54 000:995.093 JLINK_WriteReg(R4, 0x00000000)
T2F54 000:995.097 - 0.005ms returns 0x00
T2F54 000:995.101 JLINK_WriteReg(R5, 0x00000000)
T2F54 000:995.104 - 0.005ms returns 0x00
T2F54 000:995.109 JLINK_WriteReg(R6, 0x00000000)
T2F54 000:995.112 - 0.005ms returns 0x00
T2F54 000:995.116 JLINK_WriteReg(R7, 0x00000000)
T2F54 000:995.120 - 0.005ms returns 0x00
T2F54 000:995.124 JLINK_WriteReg(R8, 0x00000000)
T2F54 000:995.128 - 0.005ms returns 0x00
T2F54 000:995.132 JLINK_WriteReg(R9, 0x200005B4)
T2F54 000:995.136 - 0.005ms returns 0x00
T2F54 000:995.140 JLINK_WriteReg(R10, 0x00000000)
T2F54 000:995.143 - 0.005ms returns 0x00
T2F54 000:995.148 JLINK_WriteReg(R11, 0x00000000)
T2F54 000:995.151 - 0.005ms returns 0x00
T2F54 000:995.155 JLINK_WriteReg(R12, 0x00000000)
T2F54 000:995.159 - 0.005ms returns 0x00
T2F54 000:995.163 JLINK_WriteReg(R13 (SP), 0x20004000)
T2F54 000:995.167 - 0.005ms returns 0x00
T2F54 000:995.171 JLINK_WriteReg(R14, 0x20000001)
T2F54 000:995.175 - 0.005ms returns 0x00
T2F54 000:995.179 JLINK_WriteReg(R15 (PC), 0x20000288)
T2F54 000:995.183 - 0.005ms returns 0x00
T2F54 000:995.187 JLINK_WriteReg(XPSR, 0x01000000)
T2F54 000:995.191 - 0.005ms returns 0x00
T2F54 000:995.195 JLINK_WriteReg(MSP, 0x20004000)
T2F54 000:995.199 - 0.005ms returns 0x00
T2F54 000:995.203 JLINK_WriteReg(PSP, 0x20004000)
T2F54 000:995.207 - 0.005ms returns 0x00
T2F54 000:995.211 JLINK_WriteReg(CFBP, 0x00000000)
T2F54 000:995.215 - 0.005ms returns 0x00
T2F54 000:995.220   JLINK_SetBPEx(Addr = 0x20000000, Type = 0xFFFFFFF2)
T2F54 000:995.226 - 0.008ms returns 0x0000000A
T2F54 000:995.230 JLINK_Go()
T2F54 000:995.241   CPU_ReadMem(4 bytes @ 0xE0001000)
T2F54 000:999.600 - 4.377ms
T2F54 000:999.647 JLINK_IsHalted()
T2F54 001:002.665   CPU_ReadMem(2 bytes @ 0x20000000)
T2F54 001:003.600 - 3.961ms returns TRUE
T2F54 001:003.645 JLINK_ReadReg(R15 (PC))
T2F54 001:003.654 - 0.011ms returns 0x20000000
T2F54 001:003.659 JLINK_ClrBPEx(BPHandle = 0x0000000A)
T2F54 001:003.664 - 0.006ms returns 0x00
T2F54 001:003.669 JLINK_ReadReg(R0)
T2F54 001:003.672 - 0.005ms returns 0x00000001
T2F54 001:003.679 JLINK_WriteReg(R0, 0x0001C000)
T2F54 001:003.697 - 0.019ms returns 0x00
T2F54 001:003.726 JLINK_WriteReg(R1, 0x00001000)
T2F54 001:003.733 - 0.008ms returns 0x00
T2F54 001:003.737 JLINK_WriteReg(R2, 0x000000FF)
T2F54 001:003.741 - 0.005ms returns 0x00
T2F54 001:003.745 JLINK_WriteReg(R3, 0x00000000)
T2F54 001:003.749 - 0.005ms returns 0x00
T2F54 001:003.753 JLINK_WriteReg(R4, 0x00000000)
T2F54 001:003.757 - 0.005ms returns 0x00
T2F54 001:003.761 JLINK_WriteReg(R5, 0x00000000)
T2F54 001:003.764 - 0.005ms returns 0x00
T2F54 001:003.768 JLINK_WriteReg(R6, 0x00000000)
T2F54 001:003.772 - 0.005ms returns 0x00
T2F54 001:003.776 JLINK_WriteReg(R7, 0x00000000)
T2F54 001:003.779 - 0.005ms returns 0x00
T2F54 001:003.784 JLINK_WriteReg(R8, 0x00000000)
T2F54 001:003.787 - 0.005ms returns 0x00
T2F54 001:003.791 JLINK_WriteReg(R9, 0x200005B4)
T2F54 001:003.795 - 0.005ms returns 0x00
T2F54 001:003.799 JLINK_WriteReg(R10, 0x00000000)
T2F54 001:003.803 - 0.005ms returns 0x00
T2F54 001:003.807 JLINK_WriteReg(R11, 0x00000000)
T2F54 001:003.811 - 0.005ms returns 0x00
T2F54 001:003.815 JLINK_WriteReg(R12, 0x00000000)
T2F54 001:003.818 - 0.005ms returns 0x00
T2F54 001:003.823 JLINK_WriteReg(R13 (SP), 0x20004000)
T2F54 001:003.827 - 0.005ms returns 0x00
T2F54 001:003.831 JLINK_WriteReg(R14, 0x20000001)
T2F54 001:003.834 - 0.005ms returns 0x00
T2F54 001:003.839 JLINK_WriteReg(R15 (PC), 0x200000D4)
T2F54 001:003.843 - 0.005ms returns 0x00
T2F54 001:003.847 JLINK_WriteReg(XPSR, 0x01000000)
T2F54 001:003.850 - 0.005ms returns 0x00
T2F54 001:003.854 JLINK_WriteReg(MSP, 0x20004000)
T2F54 001:003.858 - 0.005ms returns 0x00
T2F54 001:003.862 JLINK_WriteReg(PSP, 0x20004000)
T2F54 001:003.866 - 0.005ms returns 0x00
T2F54 001:003.870 JLINK_WriteReg(CFBP, 0x00000000)
T2F54 001:003.873 - 0.005ms returns 0x00
T2F54 001:003.879   JLINK_SetBPEx(Addr = 0x20000000, Type = 0xFFFFFFF2)
T2F54 001:003.884 - 0.008ms returns 0x0000000B
T2F54 001:003.889 JLINK_Go()
T2F54 001:003.899   CPU_ReadMem(4 bytes @ 0xE0001000)
T2F54 001:007.693 - 3.811ms
T2F54 001:007.733 JLINK_IsHalted()
T2F54 001:008.695 - 0.967ms returns FALSE
T2F54 001:014.944 JLINK_IsHalted()
T2F54 001:016.419 - 1.485ms returns FALSE
T2F54 001:029.941 JLINK_IsHalted()
T2F54 001:040.932 - 11.004ms returns FALSE
T2F54 001:045.948 JLINK_IsHalted()
T2F54 001:047.272 - 1.332ms returns FALSE
T2F54 001:047.953 JLINK_IsHalted()
T2F54 001:049.280 - 1.336ms returns FALSE
T2F54 001:049.973 JLINK_IsHalted()
T2F54 001:051.323 - 1.358ms returns FALSE
T2F54 001:051.966 JLINK_IsHalted()
T2F54 001:053.335 - 1.377ms returns FALSE
T2F54 001:058.971 JLINK_IsHalted()
T2F54 001:060.477 - 1.513ms returns FALSE
T2F54 001:061.930 JLINK_IsHalted()
T2F54 001:063.379 - 1.472ms returns FALSE
T2F54 001:063.981 JLINK_IsHalted()
T2F54 001:065.413 - 1.442ms returns FALSE
T2F54 001:069.969 JLINK_IsHalted()
T2F54 001:086.842 - 16.885ms returns FALSE
T2F54 001:091.967 JLINK_IsHalted()
T2F54 001:095.535   CPU_ReadMem(2 bytes @ 0x20000000)
T2F54 001:096.498 - 4.541ms returns TRUE
T2F54 001:096.565 JLINK_ReadReg(R15 (PC))
T2F54 001:096.591 - 0.029ms returns 0x20000000
T2F54 001:096.597 JLINK_ClrBPEx(BPHandle = 0x0000000B)
T2F54 001:096.602 - 0.006ms returns 0x00
T2F54 001:096.607 JLINK_ReadReg(R0)
T2F54 001:096.610 - 0.005ms returns 0x00000000
T2F54 001:097.042 JLINK_WriteReg(R0, 0x0001D000)
T2F54 001:097.053 - 0.012ms returns 0x00
T2F54 001:097.058 JLINK_WriteReg(R1, 0x00001000)
T2F54 001:097.062 - 0.005ms returns 0x00
T2F54 001:097.066 JLINK_WriteReg(R2, 0x000000FF)
T2F54 001:097.070 - 0.005ms returns 0x00
T2F54 001:097.074 JLINK_WriteReg(R3, 0x00000000)
T2F54 001:097.078 - 0.005ms returns 0x00
T2F54 001:097.082 JLINK_WriteReg(R4, 0x00000000)
T2F54 001:097.085 - 0.005ms returns 0x00
T2F54 001:097.089 JLINK_WriteReg(R5, 0x00000000)
T2F54 001:097.093 - 0.005ms returns 0x00
T2F54 001:097.097 JLINK_WriteReg(R6, 0x00000000)
T2F54 001:097.101 - 0.005ms returns 0x00
T2F54 001:097.105 JLINK_WriteReg(R7, 0x00000000)
T2F54 001:097.109 - 0.005ms returns 0x00
T2F54 001:097.113 JLINK_WriteReg(R8, 0x00000000)
T2F54 001:097.116 - 0.008ms returns 0x00
T2F54 001:097.125 JLINK_WriteReg(R9, 0x200005B4)
T2F54 001:097.129 - 0.005ms returns 0x00
T2F54 001:097.133 JLINK_WriteReg(R10, 0x00000000)
T2F54 001:097.137 - 0.005ms returns 0x00
T2F54 001:097.141 JLINK_WriteReg(R11, 0x00000000)
T2F54 001:097.145 - 0.005ms returns 0x00
T2F54 001:097.149 JLINK_WriteReg(R12, 0x00000000)
T2F54 001:097.153 - 0.005ms returns 0x00
T2F54 001:097.157 JLINK_WriteReg(R13 (SP), 0x20004000)
T2F54 001:097.161 - 0.005ms returns 0x00
T2F54 001:097.165 JLINK_WriteReg(R14, 0x20000001)
T2F54 001:097.169 - 0.005ms returns 0x00
T2F54 001:097.173 JLINK_WriteReg(R15 (PC), 0x20000288)
T2F54 001:097.177 - 0.005ms returns 0x00
T2F54 001:097.181 JLINK_WriteReg(XPSR, 0x01000000)
T2F54 001:097.184 - 0.005ms returns 0x00
T2F54 001:097.189 JLINK_WriteReg(MSP, 0x20004000)
T2F54 001:097.192 - 0.005ms returns 0x00
T2F54 001:097.196 JLINK_WriteReg(PSP, 0x20004000)
T2F54 001:097.200 - 0.005ms returns 0x00
T2F54 001:097.204 JLINK_WriteReg(CFBP, 0x00000000)
T2F54 001:097.208 - 0.005ms returns 0x00
T2F54 001:097.212   JLINK_SetBPEx(Addr = 0x20000000, Type = 0xFFFFFFF2)
T2F54 001:097.219 - 0.008ms returns 0x0000000C
T2F54 001:097.223 JLINK_Go()
T2F54 001:097.234   CPU_ReadMem(4 bytes @ 0xE0001000)
T2F54 001:101.555 - 4.342ms
T2F54 001:101.641 JLINK_IsHalted()
T2F54 001:104.625   CPU_ReadMem(2 bytes @ 0x20000000)
T2F54 001:105.553 - 3.919ms returns TRUE
T2F54 001:105.595 JLINK_ReadReg(R15 (PC))
T2F54 001:105.603 - 0.010ms returns 0x20000000
T2F54 001:105.608 JLINK_ClrBPEx(BPHandle = 0x0000000C)
T2F54 001:105.613 - 0.006ms returns 0x00
T2F54 001:105.617 JLINK_ReadReg(R0)
T2F54 001:105.621 - 0.005ms returns 0x00000001
T2F54 001:105.628 JLINK_WriteReg(R0, 0x0001D000)
T2F54 001:105.632 - 0.006ms returns 0x00
T2F54 001:105.637 JLINK_WriteReg(R1, 0x00001000)
T2F54 001:105.640 - 0.005ms returns 0x00
T2F54 001:105.644 JLINK_WriteReg(R2, 0x000000FF)
T2F54 001:105.648 - 0.005ms returns 0x00
T2F54 001:105.652 JLINK_WriteReg(R3, 0x00000000)
T2F54 001:105.656 - 0.005ms returns 0x00
T2F54 001:105.660 JLINK_WriteReg(R4, 0x00000000)
T2F54 001:105.663 - 0.005ms returns 0x00
T2F54 001:105.667 JLINK_WriteReg(R5, 0x00000000)
T2F54 001:105.671 - 0.005ms returns 0x00
T2F54 001:105.675 JLINK_WriteReg(R6, 0x00000000)
T2F54 001:105.678 - 0.004ms returns 0x00
T2F54 001:105.683 JLINK_WriteReg(R7, 0x00000000)
T2F54 001:105.686 - 0.005ms returns 0x00
T2F54 001:105.690 JLINK_WriteReg(R8, 0x00000000)
T2F54 001:105.694 - 0.005ms returns 0x00
T2F54 001:105.698 JLINK_WriteReg(R9, 0x200005B4)
T2F54 001:105.702 - 0.005ms returns 0x00
T2F54 001:105.706 JLINK_WriteReg(R10, 0x00000000)
T2F54 001:105.709 - 0.005ms returns 0x00
T2F54 001:105.713 JLINK_WriteReg(R11, 0x00000000)
T2F54 001:105.717 - 0.005ms returns 0x00
T2F54 001:105.721 JLINK_WriteReg(R12, 0x00000000)
T2F54 001:105.725 - 0.005ms returns 0x00
T2F54 001:105.729 JLINK_WriteReg(R13 (SP), 0x20004000)
T2F54 001:105.733 - 0.005ms returns 0x00
T2F54 001:105.737 JLINK_WriteReg(R14, 0x20000001)
T2F54 001:105.741 - 0.005ms returns 0x00
T2F54 001:105.745 JLINK_WriteReg(R15 (PC), 0x200000D4)
T2F54 001:105.749 - 0.005ms returns 0x00
T2F54 001:105.753 JLINK_WriteReg(XPSR, 0x01000000)
T2F54 001:105.757 - 0.005ms returns 0x00
T2F54 001:105.760 JLINK_WriteReg(MSP, 0x20004000)
T2F54 001:105.764 - 0.005ms returns 0x00
T2F54 001:105.768 JLINK_WriteReg(PSP, 0x20004000)
T2F54 001:105.772 - 0.005ms returns 0x00
T2F54 001:105.776 JLINK_WriteReg(CFBP, 0x00000000)
T2F54 001:105.780 - 0.005ms returns 0x00
T2F54 001:105.785   JLINK_SetBPEx(Addr = 0x20000000, Type = 0xFFFFFFF2)
T2F54 001:105.790 - 0.007ms returns 0x0000000D
T2F54 001:105.795 JLINK_Go()
T2F54 001:105.803   CPU_ReadMem(4 bytes @ 0xE0001000)
T2F54 001:109.602 - 3.814ms
T2F54 001:109.642 JLINK_IsHalted()
T2F54 001:110.619 - 0.985ms returns FALSE
T2F54 001:119.930 JLINK_IsHalted()
T2F54 001:137.981 - 18.061ms returns FALSE
T2F54 001:152.927 JLINK_IsHalted()
T2F54 001:154.390 - 1.472ms returns FALSE
T2F54 001:154.961 JLINK_IsHalted()
T2F54 001:156.454 - 1.503ms returns FALSE
T2F54 001:161.952 JLINK_IsHalted()
T2F54 001:163.318 - 1.376ms returns FALSE
T2F54 001:164.416 JLINK_IsHalted()
T2F54 001:165.350 - 0.940ms returns FALSE
T2F54 001:165.922 JLINK_IsHalted()
T2F54 001:167.323 - 1.409ms returns FALSE
T2F54 001:167.954 JLINK_IsHalted()
T2F54 001:185.466 - 17.521ms returns FALSE
T2F54 001:193.967 JLINK_IsHalted()
T2F54 001:197.947   CPU_ReadMem(2 bytes @ 0x20000000)
T2F54 001:198.424 - 4.465ms returns TRUE
T2F54 001:198.487 JLINK_ReadReg(R15 (PC))
T2F54 001:198.514 - 0.029ms returns 0x20000000
T2F54 001:198.520 JLINK_ClrBPEx(BPHandle = 0x0000000D)
T2F54 001:198.525 - 0.006ms returns 0x00
T2F54 001:198.529 JLINK_ReadReg(R0)
T2F54 001:198.533 - 0.005ms returns 0x00000000
T2F54 001:198.951 JLINK_WriteReg(R0, 0x0001E000)
T2F54 001:198.962 - 0.013ms returns 0x00
T2F54 001:198.967 JLINK_WriteReg(R1, 0x00001000)
T2F54 001:198.971 - 0.005ms returns 0x00
T2F54 001:198.976 JLINK_WriteReg(R2, 0x000000FF)
T2F54 001:198.979 - 0.005ms returns 0x00
T2F54 001:198.984 JLINK_WriteReg(R3, 0x00000000)
T2F54 001:198.987 - 0.005ms returns 0x00
T2F54 001:198.992 JLINK_WriteReg(R4, 0x00000000)
T2F54 001:198.995 - 0.005ms returns 0x00
T2F54 001:198.999 JLINK_WriteReg(R5, 0x00000000)
T2F54 001:199.003 - 0.005ms returns 0x00
T2F54 001:199.008 JLINK_WriteReg(R6, 0x00000000)
T2F54 001:199.024 - 0.018ms returns 0x00
T2F54 001:199.028 JLINK_WriteReg(R7, 0x00000000)
T2F54 001:199.032 - 0.005ms returns 0x00
T2F54 001:199.036 JLINK_WriteReg(R8, 0x00000000)
T2F54 001:199.040 - 0.005ms returns 0x00
T2F54 001:199.044 JLINK_WriteReg(R9, 0x200005B4)
T2F54 001:199.048 - 0.005ms returns 0x00
T2F54 001:199.052 JLINK_WriteReg(R10, 0x00000000)
T2F54 001:199.055 - 0.005ms returns 0x00
T2F54 001:199.060 JLINK_WriteReg(R11, 0x00000000)
T2F54 001:199.063 - 0.005ms returns 0x00
T2F54 001:199.067 JLINK_WriteReg(R12, 0x00000000)
